date Tue Jul 28 09:50:57.117 pm 2026
base hex  timestamps absolute
internal events logged
// version 8.5.0
Begin Triggerblock Tue Jul 28 09:50:57.117 pm 2026
   0.000000 Start of measurement
   0.000000 1  221             Rx   d 8 04 8C 0A 8C 0A 8C 0A 01   Length = 0 BitCount = 0 ID = 545
   0.003768 1  1e8             Rx   d 8 05 00 00 00 00 00 00 00   Length = 0 BitCount = 0 ID = 488
   0.005710 1  1e7             Rx   d 8 05 00 00 00 00 00 00 00   Length = 0 BitCount = 0 ID = 487
   0.019641 1  221             Rx   d 8 05 8C 0A 00 00 04 04 01   Length = 0 BitCount = 0 ID = 545
   0.019642 1  1e7             Rx   d 8 01 00 00 00 00 00 00 00   Length = 0 BitCount = 0 ID = 487
   0.019643 1  222             Rx   d 8 05 DF 00 00 00 03 03 02   Length = 0 BitCount = 0 ID = 546
   0.019644 1  221             Rx   d 8 01 30 05 00 00 00 00 01   Length = 0 BitCount = 0 ID = 545
   0.019644 1  1e8             Rx   d 8 01 00 00 00 00 00 00 00   Length = 0 BitCount = 0 ID = 488
   0.019645 1  1e7             Rx   d 8 02 00 00 00 00 00 00 00   Length = 0 BitCount = 0 ID = 487
   0.034863 1  221             Rx   d 8 02 8C 0A 8C 0A 67 01 01   Length = 0 BitCount = 0 ID = 545
   0.034864 1  1e7             Rx   d 8 03 00 00 00 00 00 00 00   Length = 0 BitCount = 0 ID = 487
   0.034864 1  221             Rx   d 8 03 64 01 8C 0A 00 00 01   Length = 0 BitCount = 0 ID = 545
   0.034865 1  222             Rx   d 8 01 00 05 00 00 00 00 02   Length = 0 BitCount = 0 ID = 546
   0.034865 1  1e7             Rx   d 8 04 00 00 00 00 00 00 00   Length = 0 BitCount = 0 ID = 487
   0.034866 1  221             Rx   d 8 04 8C 0A 8C 0A 8C 0A 01   Length = 0 BitCount = 0 ID = 545
   0.034866 1  1e8             Rx   d 8 02 00 00 00 00 00 00 00   Length = 0 BitCount = 0 ID = 488
   0.034866 1  1e7             Rx   d 8 05 00 00 00 00 00 00 00   Length = 0 BitCount = 0 ID = 487
   0.050424 1  221             Rx   d 8 05 8C 0A 00 00 04 04 01   Length = 0 BitCount = 0 ID = 545
   0.050426 1  222             Rx   d 8 02 8C 0A 8C 0A 6E 01 02   Length = 0 BitCount = 0 ID = 546
   0.050426 1  1e7             Rx   d 8 01 00 00 00 00 00 00 00   Length = 0 BitCount = 0 ID = 487
   0.050427 1  221             Rx   d 8 01 30 05 00 00 00 00 01   Length = 0 BitCount = 0 ID = 545
   0.050427 1  1e8             Rx   d 8 03 00 00 00 00 00 00 00   Length = 0 BitCount = 0 ID = 488
   0.050428 1  1e7             Rx   d 8 02 00 00 00 00 00 00 00   Length = 0 BitCount = 0 ID = 487
   0.050428 1  221             Rx   d 8 02 8C 0A 8C 0A 67 01 01   Length = 0 BitCount = 0 ID = 545
   0.050428 1  222             Rx   d 8 03 6B 01 ED 00 00 00 02   Length = 0 BitCount = 0 ID = 546
   0.065811 1  1e7             Rx   d 8 03 00 00 00 00 00 00 00   Length = 0 BitCount = 0 ID = 487
   0.065812 1  221             Rx   d 8 03 64 01 8C 0A 00 00 01   Length = 0 BitCount = 0 ID = 545
   0.065813 1  1e8             Rx   d 8 04 00 00 00 00 00 00 00   Length = 0 BitCount = 0 ID = 488
   0.065814 1  1e7             Rx   d 8 04 00 00 00 00 00 00 00   Length = 0 BitCount = 0 ID = 487
   0.065814 1  221             Rx   d 8 04 8C 0A 8C 0A 8C 0A 01   Length = 0 BitCount = 0 ID = 545
   0.065814 1  1e7             Rx   d 8 05 00 00 00 00 00 00 00   Length = 0 BitCount = 0 ID = 487
   0.065815 1  222             Rx   d 8 04 8C 0A 8C 0A 09 01 02   Length = 0 BitCount = 0 ID = 546
   0.065815 1  221             Rx   d 8 05 8C 0A 00 00 04 04 01   Length = 0 BitCount = 0 ID = 545
   0.081269 1  1e8             Rx   d 8 05 00 00 00 00 00 00 00   Length = 0 BitCount = 0 ID = 488
   0.081270 1  1e7             Rx   d 8 01 00 00 00 00 00 00 00   Length = 0 BitCount = 0 ID = 487
   0.081271 1  221             Rx   d 8 01 30 05 00 00 00 00 01   Length = 0 BitCount = 0 ID = 545
   0.081271 1  1e7             Rx   d 8 02 00 00 00 00 00 00 00   Length = 0 BitCount = 0 ID = 487
   0.081272 1  222             Rx   d 8 05 DF 00 00 00 03 03 02   Length = 0 BitCount = 0 ID = 546
   0.081272 1  221             Rx   d 8 02 8C 0A 8C 0A 67 01 01   Length = 0 BitCount = 0 ID = 545
   0.081273 1  1e8             Rx   d 8 01 00 00 00 00 00 00 00   Length = 0 BitCount = 0 ID = 488
   0.096326 1  1e7             Rx   d 8 03 00 00 00 00 00 00 00   Length = 0 BitCount = 0 ID = 487
   0.096328 1  221             Rx   d 8 03 64 01 8C 0A 00 00 01   Length = 0 BitCount = 0 ID = 545
   0.096328 1  1e7             Rx   d 8 04 00 00 00 00 00 00 00   Length = 0 BitCount = 0 ID = 487
   0.096329 1  222             Rx   d 8 01 00 05 00 00 00 00 02   Length = 0 BitCount = 0 ID = 546
   0.096329 1  221             Rx   d 8 04 8C 0A 8C 0A 8C 0A 01   Length = 0 BitCount = 0 ID = 545
   0.096330 1  1e8             Rx   d 8 02 00 00 00 00 00 00 00   Length = 0 BitCount = 0 ID = 488
   0.096330 1  1e7             Rx   d 8 05 00 00 00 00 00 00 00   Length = 0 BitCount = 0 ID = 487
   0.111951 1  221             Rx   d 8 05 8C 0A 00 00 04 04 01   Length = 0 BitCount = 0 ID = 545
   0.111952 1  1e7             Rx   d 8 01 00 00 00 00 00 00 00   Length = 0 BitCount = 0 ID = 487
   0.111952 1  222             Rx   d 8 02 8C 0A 8C 0A 6E 01 02   Length = 0 BitCount = 0 ID = 546
   0.111953 1  221             Rx   d 8 01 30 05 00 00 00 00 01   Length = 0 BitCount = 0 ID = 545
   0.111953 1  1e8             Rx   d 8 03 00 00 00 00 00 00 00   Length = 0 BitCount = 0 ID = 488
   0.111953 1  1e7             Rx   d 8 02 00 00 00 00 00 00 00   Length = 0 BitCount = 0 ID = 487
   0.111954 1  221             Rx   d 8 02 8C 0A 8C 0A 67 01 01   Length = 0 BitCount = 0 ID = 545
   0.127593 1  1e7             Rx   d 8 03 00 00 00 00 00 00 00   Length = 0 BitCount = 0 ID = 487
   0.127594 1  222             Rx   d 8 03 6B 01 ED 00 00 00 02   Length = 0 BitCount = 0 ID = 546
   0.127595 1  221             Rx   d 8 03 64 01 8C 0A 00 00 01   Length = 0 BitCount = 0 ID = 545
   0.127595 1  1e8             Rx   d 8 04 00 00 00 00 00 00 00   Length = 0 BitCount = 0 ID = 488
   0.127595 1  1e7             Rx   d 8 04 00 00 00 00 00 00 00   Length = 0 BitCount = 0 ID = 487
   0.127596 1  221             Rx   d 8 04 8C 0A 8C 0A 8C 0A 01   Length = 0 BitCount = 0 ID = 545
   0.127596 1  1e7             Rx   d 8 05 00 00 00 00 00 00 00   Length = 0 BitCount = 0 ID = 487
   0.142664 1  222             Rx   d 8 04 8C 0A 8C 0A 09 01 02   Length = 0 BitCount = 0 ID = 546
   0.142666 1  221             Rx   d 8 05 8C 0A 00 00 04 04 01   Length = 0 BitCount = 0 ID = 545
   0.142666 1  1e8             Rx   d 8 05 00 00 00 00 00 00 00   Length = 0 BitCount = 0 ID = 488
   0.142667 1  1e7             Rx   d 8 01 00 00 00 00 00 00 00   Length = 0 BitCount = 0 ID = 487
   0.142667 1  221             Rx   d 8 01 30 05 00 00 00 00 01   Length = 0 BitCount = 0 ID = 545
   0.142667 1  222             Rx   d 8 05 DF 00 00 00 03 03 02   Length = 0 BitCount = 0 ID = 546
   0.142668 1  1e7             Rx   d 8 02 00 00 00 00 00 00 00   Length = 0 BitCount = 0 ID = 487
   0.142668 1  221             Rx   d 8 02 8C 0A 8C 0A 67 01 01   Length = 0 BitCount = 0 ID = 545
   0.158028 1  1e8             Rx   d 8 01 00 00 00 00 00 00 00   Length = 0 BitCount = 0 ID = 488
   0.158029 1  1e7             Rx   d 8 03 00 00 00 00 00 00 00   Length = 0 BitCount = 0 ID = 487
   0.158029 1  221             Rx   d 8 03 64 01 8C 0A 00 00 01   Length = 0 BitCount = 0 ID = 545
   0.158030 1  1e7             Rx   d 8 04 00 00 00 00 00 00 00   Length = 0 BitCount = 0 ID = 487
   0.158030 1  222             Rx   d 8 01 00 05 00 00 00 00 02   Length = 0 BitCount = 0 ID = 546
   0.158030 1  221             Rx   d 8 04 8C 0A 8C 0A 8C 0A 01   Length = 0 BitCount = 0 ID = 545
   0.158031 1  1e8             Rx   d 8 02 00 00 00 00 00 00 00   Length = 0 BitCount = 0 ID = 488
   0.173844 1  1e7             Rx   d 8 05 00 00 00 00 00 00 00   Length = 0 BitCount = 0 ID = 487
   0.173845 1  221             Rx   d 8 05 8C 0A 00 00 04 04 01   Length = 0 BitCount = 0 ID = 545
   0.173846 1  222             Rx   d 8 02 8C 0A 8C 0A 6E 01 02   Length = 0 BitCount = 0 ID = 546
   0.173846 1  1e7             Rx   d 8 01 00 00 00 00 00 00 00   Length = 0 BitCount = 0 ID = 487
   0.173847 1  221             Rx   d 8 01 30 05 00 00 00 00 01   Length = 0 BitCount = 0 ID = 545
   0.173847 1  1e8             Rx   d 8 03 00 00 00 00 00 00 00   Length = 0 BitCount = 0 ID = 488
   0.173847 1  1e7             Rx   d 8 02 00 00 00 00 00 00 00   Length = 0 BitCount = 0 ID = 487
   0.173848 1  221             Rx   d 8 02 8C 0A 8C 0A 67 01 01   Length = 0 BitCount = 0 ID = 545
   0.189581 1  222             Rx   d 8 03 6B 01 ED 00 00 00 02   Length = 0 BitCount = 0 ID = 546
   0.189583 1  1e7             Rx   d 8 03 00 00 00 00 00 00 00   Length = 0 BitCount = 0 ID = 487
   0.189583 1  221             Rx   d 8 03 64 01 8C 0A 00 00 01   Length = 0 BitCount = 0 ID = 545
   0.189583 1  1e8             Rx   d 8 04 00 00 00 00 00 00 00   Length = 0 BitCount = 0 ID = 488
   0.189584 1  1e7             Rx   d 8 04 00 00 00 00 00 00 00   Length = 0 BitCount = 0 ID = 487
   0.189584 1  221             Rx   d 8 04 8C 0A 8C 0A 8C 0A 01   Length = 0 BitCount = 0 ID = 545
   0.189584 1  1e7             Rx   d 8 05 00 00 00 00 00 00 00   Length = 0 BitCount = 0 ID = 487
   0.189585 1  222             Rx   d 8 04 8C 0A 8C 0A 09 01 02   Length = 0 BitCount = 0 ID = 546
   0.204839 1  221             Rx   d 8 05 8C 0A 00 00 04 04 01   Length = 0 BitCount = 0 ID = 545
   0.204840 1  1e8             Rx   d 8 05 00 00 00 00 00 00 00   Length = 0 BitCount = 0 ID = 488
   0.204841 1  1e7             Rx   d 8 01 00 00 00 00 00 00 00   Length = 0 BitCount = 0 ID = 487
   0.204841 1  221             Rx   d 8 01 30 05 00 00 00 00 01   Length = 0 BitCount = 0 ID = 545
   0.204841 1  1e7             Rx   d 8 02 00 00 00 00 00 00 00   Length = 0 BitCount = 0 ID = 487
   0.204842 1  222             Rx   d 8 05 DF 00 00 00 03 03 02   Length = 0 BitCount = 0 ID = 546
   0.204842 1  221             Rx   d 8 02 8C 0A 8C 0A 67 01 01   Length = 0 BitCount = 0 ID = 545
   0.220396 1  1e8             Rx   d 8 01 00 00 00 00 00 00 00   Length = 0 BitCount = 0 ID = 488
   0.220397 1  1e7             Rx   d 8 03 00 00 00 00 00 00 00   Length = 0 BitCount = 0 ID = 487
   0.220398 1  221             Rx   d 8 03 64 01 8C 0A 00 00 01   Length = 0 BitCount = 0 ID = 545
   0.220398 1  1e7             Rx   d 8 04 00 00 00 00 00 00 00   Length = 0 BitCount = 0 ID = 487
   0.220398 1  222             Rx   d 8 01 00 05 00 00 00 00 02   Length = 0 BitCount = 0 ID = 546
   0.220399 1  221             Rx   d 8 04 8C 0A 8C 0A 8C 0A 01   Length = 0 BitCount = 0 ID = 545
   0.220399 1  1e8             Rx   d 8 02 00 00 00 00 00 00 00   Length = 0 BitCount = 0 ID = 488
   0.235983 1  1e7             Rx   d 8 05 00 00 00 00 00 00 00   Length = 0 BitCount = 0 ID = 487
   0.235984 1  221             Rx   d 8 05 8C 0A 00 00 04 04 01   Length = 0 BitCount = 0 ID = 545
   0.235984 1  1e7             Rx   d 8 01 00 00 00 00 00 00 00   Length = 0 BitCount = 0 ID = 487
   0.235985 1  222             Rx   d 8 02 8C 0A 8C 0A 6E 01 02   Length = 0 BitCount = 0 ID = 546
   0.235985 1  221             Rx   d 8 01 30 05 00 00 00 00 01   Length = 0 BitCount = 0 ID = 545
   0.235985 1  1e8             Rx   d 8 03 00 00 00 00 00 00 00   Length = 0 BitCount = 0 ID = 488
   0.235986 1  1e7             Rx   d 8 02 00 00 00 00 00 00 00   Length = 0 BitCount = 0 ID = 487
   0.235986 1  221             Rx   d 8 02 8C 0A 8C 0A 67 01 01   Length = 0 BitCount = 0 ID = 545
   0.251489 1  1e7             Rx   d 8 03 00 00 00 00 00 00 00   Length = 0 BitCount = 0 ID = 487
   0.251490 1  222             Rx   d 8 03 6B 01 ED 00 00 00 02   Length = 0 BitCount = 0 ID = 546
   0.251491 1  221             Rx   d 8 03 64 01 8C 0A 00 00 01   Length = 0 BitCount = 0 ID = 545
   0.251491 1  1e8             Rx   d 8 04 00 00 00 00 00 00 00   Length = 0 BitCount = 0 ID = 488
   0.251491 1  1e7             Rx   d 8 04 00 00 00 00 00 00 00   Length = 0 BitCount = 0 ID = 487
   0.251492 1  221             Rx   d 8 04 8C 0A 8C 0A 8C 0A 01   Length = 0 BitCount = 0 ID = 545
   0.266719 1  1e7             Rx   d 8 05 00 00 00 00 00 00 00   Length = 0 BitCount = 0 ID = 487
   0.266720 1  222             Rx   d 8 04 8C 0A 8C 0A 09 01 02   Length = 0 BitCount = 0 ID = 546
   0.266720 1  221             Rx   d 8 05 8C 0A 00 00 04 04 01   Length = 0 BitCount = 0 ID = 545
   0.266721 1  1e8             Rx   d 8 05 00 00 00 00 00 00 00   Length = 0 BitCount = 0 ID = 488
   0.266721 1  1e7             Rx   d 8 01 00 00 00 00 00 00 00   Length = 0 BitCount = 0 ID = 487
   0.266722 1  221             Rx   d 8 01 30 05 00 00 00 00 01   Length = 0 BitCount = 0 ID = 545
   0.266722 1  1e7             Rx   d 8 02 00 00 00 00 00 00 00   Length = 0 BitCount = 0 ID = 487
   0.282298 1  222             Rx   d 8 05 DF 00 00 00 03 03 02   Length = 0 BitCount = 0 ID = 546
   0.282299 1  221             Rx   d 8 02 8C 0A 8C 0A 67 01 01   Length = 0 BitCount = 0 ID = 545
   0.282300 1  1e8             Rx   d 8 01 00 00 00 00 00 00 00   Length = 0 BitCount = 0 ID = 488
   0.282300 1  1e7             Rx   d 8 03 00 00 00 00 00 00 00   Length = 0 BitCount = 0 ID = 487
   0.282301 1  221             Rx   d 8 03 64 01 8C 0A 00 00 01   Length = 0 BitCount = 0 ID = 545
   0.282301 1  1e7             Rx   d 8 04 00 00 00 00 00 00 00   Length = 0 BitCount = 0 ID = 487
   0.282302 1  222             Rx   d 8 01 00 05 00 00 00 00 02   Length = 0 BitCount = 0 ID = 546
   0.282303 1  221             Rx   d 8 04 8C 0A 8C 0A 8C 0A 01   Length = 0 BitCount = 0 ID = 545
   0.297801 1  1e8             Rx   d 8 02 00 00 00 00 00 00 00   Length = 0 BitCount = 0 ID = 488
   0.297802 1  1e7             Rx   d 8 05 00 00 00 00 00 00 00   Length = 0 BitCount = 0 ID = 487
   0.297803 1  221             Rx   d 8 05 8C 0A 00 00 04 04 01   Length = 0 BitCount = 0 ID = 545
   0.297803 1  1e7             Rx   d 8 01 00 00 00 00 00 00 00   Length = 0 BitCount = 0 ID = 487
   0.297804 1  222             Rx   d 8 02 8C 0A 8C 0A 6E 01 02   Length = 0 BitCount = 0 ID = 546
   0.297804 1  221             Rx   d 8 01 30 05 00 00 00 00 01   Length = 0 BitCount = 0 ID = 545
   0.297804 1  1e8             Rx   d 8 03 00 00 00 00 00 00 00   Length = 0 BitCount = 0 ID = 488
   0.313326 1  1e7             Rx   d 8 02 00 00 00 00 00 00 00   Length = 0 BitCount = 0 ID = 487
   0.313327 1  221             Rx   d 8 02 8C 0A 8C 0A 67 01 01   Length = 0 BitCount = 0 ID = 545
   0.313328 1  1e7             Rx   d 8 03 00 00 00 00 00 00 00   Length = 0 BitCount = 0 ID = 487
   0.313328 1  222             Rx   d 8 03 6B 01 ED 00 00 00 02   Length = 0 BitCount = 0 ID = 546
   0.313329 1  221             Rx   d 8 03 64 01 8C 0A 00 00 01   Length = 0 BitCount = 0 ID = 545
   0.313329 1  1e8             Rx   d 8 04 00 00 00 00 00 00 00   Length = 0 BitCount = 0 ID = 488
   0.313329 1  1e7             Rx   d 8 04 00 00 00 00 00 00 00   Length = 0 BitCount = 0 ID = 487
   0.328960 1  221             Rx   d 8 04 8C 0A 8C 0A 8C 0A 01   Length = 0 BitCount = 0 ID = 545
   0.328961 1  1e7             Rx   d 8 05 00 00 00 00 00 00 00   Length = 0 BitCount = 0 ID = 487
   0.328961 1  222             Rx   d 8 04 8C 0A 8C 0A 09 01 02   Length = 0 BitCount = 0 ID = 546
   0.328961 1  221             Rx   d 8 05 8C 0A 00 00 04 04 01   Length = 0 BitCount = 0 ID = 545
   0.328962 1  1e8             Rx   d 8 05 00 00 00 00 00 00 00   Length = 0 BitCount = 0 ID = 488
   0.328962 1  1e7             Rx   d 8 01 00 00 00 00 00 00 00   Length = 0 BitCount = 0 ID = 487
   0.328962 1  221             Rx   d 8 01 30 05 00 00 00 00 01   Length = 0 BitCount = 0 ID = 545
   0.344154 1  1e7             Rx   d 8 02 00 00 00 00 00 00 00   Length = 0 BitCount = 0 ID = 487
   0.344155 1  222             Rx   d 8 05 DF 00 00 00 03 03 02   Length = 0 BitCount = 0 ID = 546
   0.344156 1  221             Rx   d 8 02 8C 0A 8C 0A 67 01 01   Length = 0 BitCount = 0 ID = 545
   0.344156 1  1e8             Rx   d 8 01 00 00 00 00 00 00 00   Length = 0 BitCount = 0 ID = 488
   0.344157 1  1e7             Rx   d 8 03 00 00 00 00 00 00 00   Length = 0 BitCount = 0 ID = 487
   0.344157 1  221             Rx   d 8 03 64 01 8C 0A 00 00 01   Length = 0 BitCount = 0 ID = 545
   0.344157 1  1e7             Rx   d 8 04 00 00 00 00 00 00 00   Length = 0 BitCount = 0 ID = 487
   0.359491 1  222             Rx   d 8 01 00 05 00 00 00 00 02   Length = 0 BitCount = 0 ID = 546
   0.359492 1  221             Rx   d 8 04 8C 0A 8C 0A 8C 0A 01   Length = 0 BitCount = 0 ID = 545
   0.359492 1  1e8             Rx   d 8 02 00 00 00 00 00 00 00   Length = 0 BitCount = 0 ID = 488
   0.359493 1  1e7             Rx   d 8 05 00 00 00 00 00 00 00   Length = 0 BitCount = 0 ID = 487
   0.359493 1  221             Rx   d 8 05 8C 0A 00 00 04 04 01   Length = 0 BitCount = 0 ID = 545
   0.359493 1  1e7             Rx   d 8 01 00 00 00 00 00 00 00   Length = 0 BitCount = 0 ID = 487
   0.359494 1  221             Rx   d 8 01 30 05 00 00 00 00 01   Length = 0 BitCount = 0 ID = 545
   0.359494 1  222             Rx   d 8 02 8C 0A 8C 0A 6E 01 02   Length = 0 BitCount = 0 ID = 546
   0.375172 1  1e7             Rx   d 8 02 00 00 00 00 00 00 00   Length = 0 BitCount = 0 ID = 487
   0.375173 1  221             Rx   d 8 02 8C 0A 8C 0A 67 01 01   Length = 0 BitCount = 0 ID = 545
   0.375173 1  1e8             Rx   d 8 03 00 00 00 00 00 00 00   Length = 0 BitCount = 0 ID = 488
   0.375174 1  1e7             Rx   d 8 03 00 00 00 00 00 00 00   Length = 0 BitCount = 0 ID = 487
   0.375174 1  221             Rx   d 8 03 64 01 8C 0A 00 00 01   Length = 0 BitCount = 0 ID = 545
   0.375174 1  222             Rx   d 8 03 6B 01 ED 00 00 00 02   Length = 0 BitCount = 0 ID = 546
   0.375175 1  1e7             Rx   d 8 04 00 00 00 00 00 00 00   Length = 0 BitCount = 0 ID = 487
   0.375175 1  221             Rx   d 8 04 8C 0A 8C 0A 8C 0A 01   Length = 0 BitCount = 0 ID = 545
   0.390335 1  1e8             Rx   d 8 04 00 00 00 00 00 00 00   Length = 0 BitCount = 0 ID = 488
   0.390337 1  1e7             Rx   d 8 05 00 00 00 00 00 00 00   Length = 0 BitCount = 0 ID = 487
   0.390337 1  221             Rx   d 8 05 8C 0A 00 00 04 04 01   Length = 0 BitCount = 0 ID = 545
   0.390337 1  1e7             Rx   d 8 01 00 00 00 00 00 00 00   Length = 0 BitCount = 0 ID = 487
   0.390338 1  222             Rx   d 8 04 8C 0A 8C 0A 09 01 02   Length = 0 BitCount = 0 ID = 546
   0.390338 1  221             Rx   d 8 01 30 05 00 00 00 00 01   Length = 0 BitCount = 0 ID = 545
   0.390338 1  1e8             Rx   d 8 05 00 00 00 00 00 00 00   Length = 0 BitCount = 0 ID = 488
   0.405651 1  1e7             Rx   d 8 02 00 00 00 00 00 00 00   Length = 0 BitCount = 0 ID = 487
   0.405652 1  221             Rx   d 8 02 8C 0A 8C 0A 67 01 01   Length = 0 BitCount = 0 ID = 545
   0.405653 1  1e7             Rx   d 8 03 00 00 00 00 00 00 00   Length = 0 BitCount = 0 ID = 487
   0.405653 1  222             Rx   d 8 05 DF 00 00 00 03 03 02   Length = 0 BitCount = 0 ID = 546
   0.405653 1  221             Rx   d 8 03 64 01 8C 0A 00 00 01   Length = 0 BitCount = 0 ID = 545
   0.405654 1  1e8             Rx   d 8 01 00 00 00 00 00 00 00   Length = 0 BitCount = 0 ID = 488
   0.405654 1  1e7             Rx   d 8 04 00 00 00 00 00 00 00   Length = 0 BitCount = 0 ID = 487
   0.421126 1  221             Rx   d 8 04 8C 0A 8C 0A 8C 0A 01   Length = 0 BitCount = 0 ID = 545
   0.421127 1  222             Rx   d 8 01 00 05 00 00 00 00 02   Length = 0 BitCount = 0 ID = 546
   0.421128 1  1e7             Rx   d 8 05 00 00 00 00 00 00 00   Length = 0 BitCount = 0 ID = 487
   0.421128 1  221             Rx   d 8 05 8C 0A 00 00 04 04 01   Length = 0 BitCount = 0 ID = 545
   0.421128 1  1e8             Rx   d 8 02 00 00 00 00 00 00 00   Length = 0 BitCount = 0 ID = 488
   0.421129 1  1e7             Rx   d 8 01 00 00 00 00 00 00 00   Length = 0 BitCount = 0 ID = 487
   0.421129 1  221             Rx   d 8 01 30 05 00 00 00 00 01   Length = 0 BitCount = 0 ID = 545
   0.421129 1  222             Rx   d 8 02 8C 0A 8C 0A 6E 01 02   Length = 0 BitCount = 0 ID = 546
   0.436661 1  1e7             Rx   d 8 02 00 00 00 00 00 00 00   Length = 0 BitCount = 0 ID = 487
   0.436662 1  221             Rx   d 8 02 8C 0A 8C 0A 67 01 01   Length = 0 BitCount = 0 ID = 545
   0.436663 1  1e8             Rx   d 8 03 00 00 00 00 00 00 00   Length = 0 BitCount = 0 ID = 488
   0.436663 1  1e7             Rx   d 8 03 00 00 00 00 00 00 00   Length = 0 BitCount = 0 ID = 487
   0.436663 1  221             Rx   d 8 03 64 01 8C 0A 00 00 01   Length = 0 BitCount = 0 ID = 545
   0.436664 1  1e7             Rx   d 8 04 00 00 00 00 00 00 00   Length = 0 BitCount = 0 ID = 487
   0.436664 1  221             Rx   d 8 04 8C 0A 8C 0A 8C 0A 01   Length = 0 BitCount = 0 ID = 545
   0.436664 1  222             Rx   d 8 03 6B 01 ED 00 00 00 02   Length = 0 BitCount = 0 ID = 546
   0.451922 1  1e7             Rx   d 8 05 00 00 00 00 00 00 00   Length = 0 BitCount = 0 ID = 487
   0.451923 1  221             Rx   d 8 05 8C 0A 00 00 04 04 01   Length = 0 BitCount = 0 ID = 545
   0.451923 1  1e8             Rx   d 8 04 00 00 00 00 00 00 00   Length = 0 BitCount = 0 ID = 488
   0.451924 1  1e7             Rx   d 8 01 00 00 00 00 00 00 00   Length = 0 BitCount = 0 ID = 487
   0.451924 1  221             Rx   d 8 01 30 05 00 00 00 00 01   Length = 0 BitCount = 0 ID = 545
   0.451924 1  222             Rx   d 8 04 8C 0A 8C 0A 09 01 02   Length = 0 BitCount = 0 ID = 546
   0.451925 1  1e7             Rx   d 8 02 00 00 00 00 00 00 00   Length = 0 BitCount = 0 ID = 487
   0.451925 1  221             Rx   d 8 02 8C 0A 8C 0A 67 01 01   Length = 0 BitCount = 0 ID = 545
   0.467066 1  1e8             Rx   d 8 05 00 00 00 00 00 00 00   Length = 0 BitCount = 0 ID = 488
   0.467066 1  1e7             Rx   d 8 03 00 00 00 00 00 00 00   Length = 0 BitCount = 0 ID = 487
   0.467067 1  221             Rx   d 8 03 64 01 8C 0A 00 00 01   Length = 0 BitCount = 0 ID = 545
   0.467067 1  1e7             Rx   d 8 04 00 00 00 00 00 00 00   Length = 0 BitCount = 0 ID = 487
   0.467068 1  222             Rx   d 8 05 DF 00 00 00 03 03 02   Length = 0 BitCount = 0 ID = 546
   0.467068 1  221             Rx   d 8 04 8C 0A 8C 0A 8C 0A 01   Length = 0 BitCount = 0 ID = 545
   0.467068 1  1e8             Rx   d 8 01 00 00 00 00 00 00 00   Length = 0 BitCount = 0 ID = 488
   0.482539 1  1e7             Rx   d 8 05 00 00 00 00 00 00 00   Length = 0 BitCount = 0 ID = 487
   0.482541 1  221             Rx   d 8 05 8C 0A 00 00 04 04 01   Length = 0 BitCount = 0 ID = 545
   0.482541 1  1e7             Rx   d 8 01 00 00 00 00 00 00 00   Length = 0 BitCount = 0 ID = 487
   0.482541 1  222             Rx   d 8 01 00 05 00 00 00 00 02   Length = 0 BitCount = 0 ID = 546
   0.482542 1  221             Rx   d 8 01 30 05 00 00 00 00 01   Length = 0 BitCount = 0 ID = 545
   0.482542 1  1e8             Rx   d 8 02 00 00 00 00 00 00 00   Length = 0 BitCount = 0 ID = 488
   0.482542 1  1e7             Rx   d 8 02 00 00 00 00 00 00 00   Length = 0 BitCount = 0 ID = 487
   0.498067 1  221             Rx   d 8 02 8C 0A 8C 0A 67 01 01   Length = 0 BitCount = 0 ID = 545
   0.498068 1  1e7             Rx   d 8 03 00 00 00 00 00 00 00   Length = 0 BitCount = 0 ID = 487
   0.498068 1  221             Rx   d 8 03 64 01 8C 0A 00 00 01   Length = 0 BitCount = 0 ID = 545
   0.498069 1  222             Rx   d 8 02 8C 0A 8C 0A 6E 01 02   Length = 0 BitCount = 0 ID = 546
   0.498069 1  1e7             Rx   d 8 04 00 00 00 00 00 00 00   Length = 0 BitCount = 0 ID = 487
   0.498069 1  221             Rx   d 8 04 8C 0A 8C 0A 8C 0A 01   Length = 0 BitCount = 0 ID = 545
   0.498070 1  1e8             Rx   d 8 03 00 00 00 00 00 00 00   Length = 0 BitCount = 0 ID = 488
   0.498070 1  1e7             Rx   d 8 05 00 00 00 00 00 00 00   Length = 0 BitCount = 0 ID = 487
   0.513566 1  221             Rx   d 8 05 8C 0A 00 00 04 04 01   Length = 0 BitCount = 0 ID = 545
   0.513568 1  222             Rx   d 8 03 6B 01 ED 00 00 00 02   Length = 0 BitCount = 0 ID = 546
   0.513568 1  1e7             Rx   d 8 01 00 00 00 00 00 00 00   Length = 0 BitCount = 0 ID = 487
   0.513569 1  221             Rx   d 8 01 30 05 00 00 00 00 01   Length = 0 BitCount = 0 ID = 545
   0.513569 1  1e8             Rx   d 8 04 00 00 00 00 00 00 00   Length = 0 BitCount = 0 ID = 488
   0.513569 1  1e7             Rx   d 8 02 00 00 00 00 00 00 00   Length = 0 BitCount = 0 ID = 487
   0.513570 1  221             Rx   d 8 02 8C 0A 8C 0A 67 01 01   Length = 0 BitCount = 0 ID = 545
   0.513570 1  222             Rx   d 8 04 8C 0A 8C 0A 09 01 02   Length = 0 BitCount = 0 ID = 546
   0.529109 1  1e7             Rx   d 8 03 00 00 00 00 00 00 00   Length = 0 BitCount = 0 ID = 487
   0.529111 1  221             Rx   d 8 03 64 01 8C 0A 00 00 01   Length = 0 BitCount = 0 ID = 545
   0.529111 1  1e8             Rx   d 8 05 00 00 00 00 00 00 00   Length = 0 BitCount = 0 ID = 488
