date Wed Jul 29 12:01:37.107 am 2026
base hex  timestamps absolute
internal events logged
// version 8.5.0
Begin Triggerblock Wed Jul 29 12:01:37.107 am 2026
   0.000000 Start of measurement
   0.000000 1  1e7             Rx   d 8 01 00 00 00 00 00 00 00   Length = 0 BitCount = 0 ID = 487
   0.001446 1  221             Rx   d 8 01 30 05 00 00 00 00 01   Length = 0 BitCount = 0 ID = 545
   0.002929 1  1e8             Rx   d 8 A1 00 00 00 00 00 00 00   Length = 0 BitCount = 0 ID = 488
   0.004439 1  1e9             Rx   d 8 03 00 00 00 00 00 00 00   Length = 0 BitCount = 0 ID = 489
   0.005937 1  223             Rx   d 8 03 FA 00 40 01 00 00 03   Length = 0 BitCount = 0 ID = 547
   0.008868 1  1e7             Rx   d 8 02 00 00 00 00 00 00 00   Length = 0 BitCount = 0 ID = 487
   0.010387 1  221             Rx   d 8 02 8C 0A 8C 0A CF 00 01   Length = 0 BitCount = 0 ID = 545
   0.011973 1  222             Rx   d 8 A1 01 00 00 00 00 00 02   Length = 0 BitCount = 0 ID = 546
   0.013452 1  1e9             Rx   d 8 04 00 00 00 00 00 00 00   Length = 0 BitCount = 0 ID = 489
   0.014938 1  223             Rx   d 8 04 4A 01 54 01 5E 01 03   Length = 0 BitCount = 0 ID = 547
   0.017006 1  1e7             Rx   d 8 03 00 00 00 00 00 00 00   Length = 0 BitCount = 0 ID = 487
   0.026422 1  221             Rx   d 8 03 CE 00 8C 0A 00 00 01   Length = 0 BitCount = 0 ID = 545
   0.026423 1  1e8             Rx   d 8 A2 00 00 00 00 00 00 00   Length = 0 BitCount = 0 ID = 488
   0.026424 1  1e9             Rx   d 8 05 00 00 00 00 00 00 00   Length = 0 BitCount = 0 ID = 489
   0.026425 1  223             Rx   d 8 05 68 01 00 00 04 04 03   Length = 0 BitCount = 0 ID = 547
   0.026425 1  1e7             Rx   d 8 04 00 00 00 00 00 00 00   Length = 0 BitCount = 0 ID = 487
   0.041708 1  221             Rx   d 8 04 8C 0A 8C 0A 8C 0A 01   Length = 0 BitCount = 0 ID = 545
   0.041709 1  222             Rx   d 8 A2 00 00 00 00 00 00 02   Length = 0 BitCount = 0 ID = 546
   0.041709 1  1e9             Rx   d 8 01 00 00 00 00 00 00 00   Length = 0 BitCount = 0 ID = 489
   0.041710 1  223             Rx   d 8 01 30 05 00 00 00 00 03   Length = 0 BitCount = 0 ID = 547
   0.041710 1  1e7             Rx   d 8 05 00 00 00 00 00 00 00   Length = 0 BitCount = 0 ID = 487
   0.041711 1  221             Rx   d 8 05 8C 0A 00 00 04 04 01   Length = 0 BitCount = 0 ID = 545
   0.041712 1  1e8             Rx   d 8 01 50 00 00 00 00 00 00   Length = 0 BitCount = 0 ID = 488
   0.041713 1  1e9             Rx   d 8 02 00 00 00 00 00 00 00   Length = 0 BitCount = 0 ID = 489
   0.041713 1  223             Rx   d 8 02 2C 01 36 01 04 01 03   Length = 0 BitCount = 0 ID = 547
   0.057224 1  1e7             Rx   d 8 01 00 00 00 00 00 00 00   Length = 0 BitCount = 0 ID = 487
   0.057225 1  221             Rx   d 8 01 30 05 00 00 00 00 01   Length = 0 BitCount = 0 ID = 545
   0.057226 1  222             Rx   d 8 01 00 05 00 00 00 00 02   Length = 0 BitCount = 0 ID = 546
   0.057226 1  1e9             Rx   d 8 03 00 00 00 00 00 00 00   Length = 0 BitCount = 0 ID = 489
   0.057226 1  223             Rx   d 8 03 FA 00 40 01 00 00 03   Length = 0 BitCount = 0 ID = 547
   0.057227 1  1e7             Rx   d 8 02 00 00 00 00 00 00 00   Length = 0 BitCount = 0 ID = 487
   0.057227 1  221             Rx   d 8 02 8C 0A 8C 0A CF 00 01   Length = 0 BitCount = 0 ID = 545
   0.057227 1  1e8             Rx   d 8 02 50 00 00 00 00 00 00   Length = 0 BitCount = 0 ID = 488
   0.057228 1  1e9             Rx   d 8 04 00 00 00 00 00 00 00   Length = 0 BitCount = 0 ID = 489
   0.057228 1  223             Rx   d 8 04 4A 01 54 01 5E 01 03   Length = 0 BitCount = 0 ID = 547
   0.072701 1  1e7             Rx   d 8 03 00 00 00 00 00 00 00   Length = 0 BitCount = 0 ID = 487
   0.072702 1  221             Rx   d 8 03 CE 00 8C 0A 00 00 01   Length = 0 BitCount = 0 ID = 545
   0.072702 1  222             Rx   d 8 02 8C 0A 8C 0A E8 00 02   Length = 0 BitCount = 0 ID = 546
   0.072703 1  1e9             Rx   d 8 05 00 00 00 00 00 00 00   Length = 0 BitCount = 0 ID = 489
   0.072703 1  223             Rx   d 8 05 68 01 00 00 04 04 03   Length = 0 BitCount = 0 ID = 547
   0.072704 1  1e7             Rx   d 8 04 00 00 00 00 00 00 00   Length = 0 BitCount = 0 ID = 487
   0.072704 1  221             Rx   d 8 04 8C 0A 8C 0A 8C 0A 01   Length = 0 BitCount = 0 ID = 545
   0.072704 1  1e8             Rx   d 8 03 50 00 00 00 00 00 00   Length = 0 BitCount = 0 ID = 488
   0.072705 1  1e9             Rx   d 8 01 00 00 00 00 00 00 00   Length = 0 BitCount = 0 ID = 489
   0.088140 1  223             Rx   d 8 01 30 05 00 00 00 00 03   Length = 0 BitCount = 0 ID = 547
   0.088141 1  1e7             Rx   d 8 05 00 00 00 00 00 00 00   Length = 0 BitCount = 0 ID = 487
   0.088141 1  221             Rx   d 8 05 8C 0A 00 00 04 04 01   Length = 0 BitCount = 0 ID = 545
   0.088142 1  222             Rx   d 8 03 E2 00 E5 00 00 00 02   Length = 0 BitCount = 0 ID = 546
   0.088142 1  1e9             Rx   d 8 02 00 00 00 00 00 00 00   Length = 0 BitCount = 0 ID = 489
   0.088143 1  223             Rx   d 8 02 2C 01 36 01 04 01 03   Length = 0 BitCount = 0 ID = 547
   0.088143 1  1e7             Rx   d 8 01 00 00 00 00 00 00 00   Length = 0 BitCount = 0 ID = 487
   0.088143 1  221             Rx   d 8 01 30 05 00 00 00 00 01   Length = 0 BitCount = 0 ID = 545
   0.088144 1  1e8             Rx   d 8 04 50 00 00 00 00 00 00   Length = 0 BitCount = 0 ID = 488
   0.103530 1  1e9             Rx   d 8 03 00 00 00 00 00 00 00   Length = 0 BitCount = 0 ID = 489
   0.103531 1  223             Rx   d 8 03 FA 00 40 01 00 00 03   Length = 0 BitCount = 0 ID = 547
   0.103531 1  1e7             Rx   d 8 02 00 00 00 00 00 00 00   Length = 0 BitCount = 0 ID = 487
   0.103532 1  221             Rx   d 8 02 8C 0A 8C 0A CF 00 01   Length = 0 BitCount = 0 ID = 545
   0.103532 1  222             Rx   d 8 04 8C 0A 8C 0A 00 01 02   Length = 0 BitCount = 0 ID = 546
   0.103533 1  1e9             Rx   d 8 04 00 00 00 00 00 00 00   Length = 0 BitCount = 0 ID = 489
   0.103533 1  223             Rx   d 8 04 4A 01 54 01 5E 01 03   Length = 0 BitCount = 0 ID = 547
   0.103533 1  1e7             Rx   d 8 03 00 00 00 00 00 00 00   Length = 0 BitCount = 0 ID = 487
   0.103534 1  221             Rx   d 8 03 CE 00 8C 0A 00 00 01   Length = 0 BitCount = 0 ID = 545
   0.118996 1  1e8             Rx   d 8 05 50 00 00 00 00 00 00   Length = 0 BitCount = 0 ID = 488
   0.118998 1  1e9             Rx   d 8 05 00 00 00 00 00 00 00   Length = 0 BitCount = 0 ID = 489
   0.118998 1  223             Rx   d 8 05 68 01 00 00 04 04 03   Length = 0 BitCount = 0 ID = 547
   0.118998 1  1e7             Rx   d 8 04 00 00 00 00 00 00 00   Length = 0 BitCount = 0 ID = 487
   0.118999 1  221             Rx   d 8 04 8C 0A 8C 0A 8C 0A 01   Length = 0 BitCount = 0 ID = 545
   0.118999 1  222             Rx   d 8 05 D8 00 50 00 03 03 02   Length = 0 BitCount = 0 ID = 546
   0.118999 1  1e9             Rx   d 8 01 00 00 00 00 00 00 00   Length = 0 BitCount = 0 ID = 489
   0.119000 1  223             Rx   d 8 01 30 05 00 00 00 00 03   Length = 0 BitCount = 0 ID = 547
   0.119000 1  1e7             Rx   d 8 05 00 00 00 00 00 00 00   Length = 0 BitCount = 0 ID = 487
   0.134042 1  221             Rx   d 8 05 8C 0A 00 00 04 04 01   Length = 0 BitCount = 0 ID = 545
   0.134044 1  1e8             Rx   d 8 01 50 00 00 00 00 00 00   Length = 0 BitCount = 0 ID = 488
   0.134044 1  1e9             Rx   d 8 02 00 00 00 00 00 00 00   Length = 0 BitCount = 0 ID = 489
   0.134044 1  223             Rx   d 8 02 2C 01 36 01 04 01 03   Length = 0 BitCount = 0 ID = 547
   0.134045 1  1e7             Rx   d 8 01 00 00 00 00 00 00 00   Length = 0 BitCount = 0 ID = 487
   0.134045 1  221             Rx   d 8 01 30 05 00 00 00 00 01   Length = 0 BitCount = 0 ID = 545
   0.134046 1  222             Rx   d 8 01 00 05 00 00 00 00 02   Length = 0 BitCount = 0 ID = 546
   0.134046 1  1e9             Rx   d 8 03 00 00 00 00 00 00 00   Length = 0 BitCount = 0 ID = 489
   0.134046 1  223             Rx   d 8 03 FA 00 40 01 00 00 03   Length = 0 BitCount = 0 ID = 547
   0.149558 1  1e7             Rx   d 8 02 00 00 00 00 00 00 00   Length = 0 BitCount = 0 ID = 487
   0.149559 1  221             Rx   d 8 02 8C 0A 8C 0A CF 00 01   Length = 0 BitCount = 0 ID = 545
   0.149560 1  1e8             Rx   d 8 02 50 00 00 00 00 00 00   Length = 0 BitCount = 0 ID = 488
   0.149560 1  1e9             Rx   d 8 04 00 00 00 00 00 00 00   Length = 0 BitCount = 0 ID = 489
   0.149560 1  223             Rx   d 8 04 4A 01 54 01 5E 01 03   Length = 0 BitCount = 0 ID = 547
   0.149561 1  1e7             Rx   d 8 03 00 00 00 00 00 00 00   Length = 0 BitCount = 0 ID = 487
   0.149561 1  221             Rx   d 8 03 CE 00 8C 0A 00 00 01   Length = 0 BitCount = 0 ID = 545
   0.149562 1  222             Rx   d 8 02 8C 0A 8C 0A E8 00 02   Length = 0 BitCount = 0 ID = 546
   0.149562 1  1e9             Rx   d 8 05 00 00 00 00 00 00 00   Length = 0 BitCount = 0 ID = 489
   0.165095 1  223             Rx   d 8 05 68 01 00 00 04 04 03   Length = 0 BitCount = 0 ID = 547
   0.165096 1  1e7             Rx   d 8 04 00 00 00 00 00 00 00   Length = 0 BitCount = 0 ID = 487
   0.165096 1  221             Rx   d 8 04 8C 0A 8C 0A 8C 0A 01   Length = 0 BitCount = 0 ID = 545
   0.165097 1  1e8             Rx   d 8 03 50 00 00 00 00 00 00   Length = 0 BitCount = 0 ID = 488
   0.165097 1  1e9             Rx   d 8 01 00 00 00 00 00 00 00   Length = 0 BitCount = 0 ID = 489
   0.165098 1  223             Rx   d 8 01 30 05 00 00 00 00 03   Length = 0 BitCount = 0 ID = 547
   0.165098 1  1e7             Rx   d 8 05 00 00 00 00 00 00 00   Length = 0 BitCount = 0 ID = 487
   0.165098 1  222             Rx   d 8 03 E2 00 E5 00 00 00 02   Length = 0 BitCount = 0 ID = 546
   0.165098 1  221             Rx   d 8 05 8C 0A 00 00 04 04 01   Length = 0 BitCount = 0 ID = 545
   0.180419 1  1e9             Rx   d 8 02 00 00 00 00 00 00 00   Length = 0 BitCount = 0 ID = 489
   0.180421 1  223             Rx   d 8 02 2C 01 36 01 04 01 03   Length = 0 BitCount = 0 ID = 547
   0.180421 1  1e7             Rx   d 8 01 00 00 00 00 00 00 00   Length = 0 BitCount = 0 ID = 487
   0.180421 1  221             Rx   d 8 01 30 05 00 00 00 00 01   Length = 0 BitCount = 0 ID = 545
   0.180422 1  1e8             Rx   d 8 04 50 00 00 00 00 00 00   Length = 0 BitCount = 0 ID = 488
   0.180422 1  1e9             Rx   d 8 03 00 00 00 00 00 00 00   Length = 0 BitCount = 0 ID = 489
   0.180422 1  223             Rx   d 8 03 FA 00 40 01 00 00 03   Length = 0 BitCount = 0 ID = 547
   0.180423 1  1e7             Rx   d 8 02 00 00 00 00 00 00 00   Length = 0 BitCount = 0 ID = 487
   0.180423 1  221             Rx   d 8 02 8C 0A 8C 0A CF 00 01   Length = 0 BitCount = 0 ID = 545
   0.195873 1  222             Rx   d 8 04 8C 0A 8C 0A 01 01 02   Length = 0 BitCount = 0 ID = 546
   0.195874 1  1e9             Rx   d 8 04 00 00 00 00 00 00 00   Length = 0 BitCount = 0 ID = 489
   0.195874 1  223             Rx   d 8 04 4A 01 54 01 5E 01 03   Length = 0 BitCount = 0 ID = 547
   0.195875 1  1e7             Rx   d 8 03 00 00 00 00 00 00 00   Length = 0 BitCount = 0 ID = 487
   0.195875 1  221             Rx   d 8 03 CE 00 8C 0A 00 00 01   Length = 0 BitCount = 0 ID = 545
   0.195876 1  1e8             Rx   d 8 05 50 00 00 00 00 00 00   Length = 0 BitCount = 0 ID = 488
   0.195876 1  1e9             Rx   d 8 05 00 00 00 00 00 00 00   Length = 0 BitCount = 0 ID = 489
   0.195876 1  223             Rx   d 8 05 68 01 00 00 04 04 03   Length = 0 BitCount = 0 ID = 547
   0.195877 1  1e7             Rx   d 8 04 00 00 00 00 00 00 00   Length = 0 BitCount = 0 ID = 487
   0.211255 1  221             Rx   d 8 04 8C 0A 8C 0A 8C 0A 01   Length = 0 BitCount = 0 ID = 545
   0.211257 1  222             Rx   d 8 05 D8 00 50 00 03 03 02   Length = 0 BitCount = 0 ID = 546
   0.211257 1  1e9             Rx   d 8 01 00 00 00 00 00 00 00   Length = 0 BitCount = 0 ID = 489
   0.211258 1  223             Rx   d 8 01 30 05 00 00 00 00 03   Length = 0 BitCount = 0 ID = 547
   0.211258 1  1e7             Rx   d 8 05 00 00 00 00 00 00 00   Length = 0 BitCount = 0 ID = 487
   0.211258 1  221             Rx   d 8 05 8C 0A 00 00 04 04 01   Length = 0 BitCount = 0 ID = 545
   0.211259 1  1e8             Rx   d 8 01 50 00 00 00 00 00 00   Length = 0 BitCount = 0 ID = 488
   0.211259 1  1e9             Rx   d 8 02 00 00 00 00 00 00 00   Length = 0 BitCount = 0 ID = 489
   0.211259 1  223             Rx   d 8 02 2C 01 36 01 04 01 03   Length = 0 BitCount = 0 ID = 547
   0.226598 1  1e7             Rx   d 8 01 00 00 00 00 00 00 00   Length = 0 BitCount = 0 ID = 487
   0.226599 1  221             Rx   d 8 01 30 05 00 00 00 00 01   Length = 0 BitCount = 0 ID = 545
   0.226600 1  222             Rx   d 8 01 00 05 00 00 00 00 02   Length = 0 BitCount = 0 ID = 546
   0.226600 1  1e9             Rx   d 8 03 00 00 00 00 00 00 00   Length = 0 BitCount = 0 ID = 489
   0.226601 1  223             Rx   d 8 03 FA 00 40 01 00 00 03   Length = 0 BitCount = 0 ID = 547
   0.226601 1  1e7             Rx   d 8 02 00 00 00 00 00 00 00   Length = 0 BitCount = 0 ID = 487
   0.226601 1  221             Rx   d 8 02 8C 0A 8C 0A CF 00 01   Length = 0 BitCount = 0 ID = 545
   0.226602 1  1e8             Rx   d 8 02 50 00 00 00 00 00 00   Length = 0 BitCount = 0 ID = 488
   0.226602 1  1e9             Rx   d 8 04 00 00 00 00 00 00 00   Length = 0 BitCount = 0 ID = 489
   0.226602 1  223             Rx   d 8 04 4A 01 54 01 5E 01 03   Length = 0 BitCount = 0 ID = 547
   0.242745 1  1e7             Rx   d 8 03 00 00 00 00 00 00 00   Length = 0 BitCount = 0 ID = 487
   0.242746 1  221             Rx   d 8 03 CE 00 8C 0A 00 00 01   Length = 0 BitCount = 0 ID = 545
   0.242746 1  222             Rx   d 8 02 8C 0A 8C 0A E8 00 02   Length = 0 BitCount = 0 ID = 546
   0.242747 1  1e9             Rx   d 8 05 00 00 00 00 00 00 00   Length = 0 BitCount = 0 ID = 489
   0.242747 1  223             Rx   d 8 05 68 01 00 00 04 04 03   Length = 0 BitCount = 0 ID = 547
   0.242747 1  1e7             Rx   d 8 04 00 00 00 00 00 00 00   Length = 0 BitCount = 0 ID = 487
   0.242748 1  221             Rx   d 8 04 8C 0A 8C 0A 8C 0A 01   Length = 0 BitCount = 0 ID = 545
   0.242748 1  1e8             Rx   d 8 03 50 00 00 00 00 00 00   Length = 0 BitCount = 0 ID = 488
   0.242748 1  1e9             Rx   d 8 01 00 00 00 00 00 00 00   Length = 0 BitCount = 0 ID = 489
   0.257928 1  223             Rx   d 8 01 30 05 00 00 00 00 03   Length = 0 BitCount = 0 ID = 547
   0.257929 1  1e7             Rx   d 8 05 00 00 00 00 00 00 00   Length = 0 BitCount = 0 ID = 487
   0.257930 1  221             Rx   d 8 05 8C 0A 00 00 04 04 01   Length = 0 BitCount = 0 ID = 545
   0.257930 1  222             Rx   d 8 03 E2 00 E5 00 00 00 02   Length = 0 BitCount = 0 ID = 546
   0.257930 1  1e9             Rx   d 8 02 00 00 00 00 00 00 00   Length = 0 BitCount = 0 ID = 489
   0.257931 1  223             Rx   d 8 02 2C 01 36 01 04 01 03   Length = 0 BitCount = 0 ID = 547
   0.257931 1  1e7             Rx   d 8 01 00 00 00 00 00 00 00   Length = 0 BitCount = 0 ID = 487
   0.257931 1  221             Rx   d 8 01 30 05 00 00 00 00 01   Length = 0 BitCount = 0 ID = 545
   0.257932 1  1e8             Rx   d 8 04 50 00 00 00 00 00 00   Length = 0 BitCount = 0 ID = 488
   0.273018 1  1e9             Rx   d 8 03 00 00 00 00 00 00 00   Length = 0 BitCount = 0 ID = 489
   0.273019 1  223             Rx   d 8 03 FA 00 40 01 00 00 03   Length = 0 BitCount = 0 ID = 547
   0.273020 1  1e7             Rx   d 8 02 00 00 00 00 00 00 00   Length = 0 BitCount = 0 ID = 487
   0.273020 1  221             Rx   d 8 02 8C 0A 8C 0A CF 00 01   Length = 0 BitCount = 0 ID = 545
   0.273020 1  222             Rx   d 8 04 8C 0A 8C 0A 00 01 02   Length = 0 BitCount = 0 ID = 546
   0.273021 1  1e9             Rx   d 8 04 00 00 00 00 00 00 00   Length = 0 BitCount = 0 ID = 489
   0.273021 1  223             Rx   d 8 04 4A 01 54 01 5E 01 03   Length = 0 BitCount = 0 ID = 547
   0.273021 1  1e7             Rx   d 8 03 00 00 00 00 00 00 00   Length = 0 BitCount = 0 ID = 487
   0.288517 1  221             Rx   d 8 03 CE 00 8C 0A 00 00 01   Length = 0 BitCount = 0 ID = 545
   0.304160 1  1e8             Rx   d 8 05 50 00 00 00 00 00 00   Length = 0 BitCount = 0 ID = 488
   0.304162 1  1e9             Rx   d 8 05 00 00 00 00 00 00 00   Length = 0 BitCount = 0 ID = 489
   0.304162 1  223             Rx   d 8 05 68 01 00 00 04 04 03   Length = 0 BitCount = 0 ID = 547
   0.304162 1  1e7             Rx   d 8 04 00 00 00 00 00 00 00   Length = 0 BitCount = 0 ID = 487
   0.304163 1  221             Rx   d 8 04 8C 0A 8C 0A 8C 0A 01   Length = 0 BitCount = 0 ID = 545
   0.304163 1  222             Rx   d 8 05 D8 00 50 00 03 03 02   Length = 0 BitCount = 0 ID = 546
   0.304164 1  1e9             Rx   d 8 01 00 00 00 00 00 00 00   Length = 0 BitCount = 0 ID = 489
   0.304164 1  223             Rx   d 8 01 30 05 00 00 00 00 03   Length = 0 BitCount = 0 ID = 547
   0.319728 1  1e7             Rx   d 8 05 00 00 00 00 00 00 00   Length = 0 BitCount = 0 ID = 487
   0.319730 1  221             Rx   d 8 05 8C 0A 00 00 04 04 01   Length = 0 BitCount = 0 ID = 545
   0.319730 1  1e8             Rx   d 8 01 50 00 00 00 00 00 00   Length = 0 BitCount = 0 ID = 488
   0.319730 1  1e9             Rx   d 8 02 00 00 00 00 00 00 00   Length = 0 BitCount = 0 ID = 489
   0.319731 1  223             Rx   d 8 02 2C 01 36 01 04 01 03   Length = 0 BitCount = 0 ID = 547
   0.319731 1  1e7             Rx   d 8 01 00 00 00 00 00 00 00   Length = 0 BitCount = 0 ID = 487
   0.319731 1  221             Rx   d 8 01 30 05 00 00 00 00 01   Length = 0 BitCount = 0 ID = 545
   0.319732 1  222             Rx   d 8 01 00 05 00 00 00 00 02   Length = 0 BitCount = 0 ID = 546
   0.319732 1  1e9             Rx   d 8 03 00 00 00 00 00 00 00   Length = 0 BitCount = 0 ID = 489
   0.319733 1  223             Rx   d 8 03 FA 00 40 01 00 00 03   Length = 0 BitCount = 0 ID = 547
   0.335050 1  1e7             Rx   d 8 02 00 00 00 00 00 00 00   Length = 0 BitCount = 0 ID = 487
   0.335051 1  221             Rx   d 8 02 8C 0A 8C 0A CF 00 01   Length = 0 BitCount = 0 ID = 545
   0.335051 1  1e8             Rx   d 8 02 50 00 00 00 00 00 00   Length = 0 BitCount = 0 ID = 488
   0.335051 1  1e9             Rx   d 8 04 00 00 00 00 00 00 00   Length = 0 BitCount = 0 ID = 489
   0.335052 1  223             Rx   d 8 04 4A 01 54 01 5E 01 03   Length = 0 BitCount = 0 ID = 547
   0.335052 1  1e7             Rx   d 8 03 00 00 00 00 00 00 00   Length = 0 BitCount = 0 ID = 487
   0.335053 1  221             Rx   d 8 03 CE 00 8C 0A 00 00 01   Length = 0 BitCount = 0 ID = 545
   0.335053 1  222             Rx   d 8 02 8C 0A 8C 0A E8 00 02   Length = 0 BitCount = 0 ID = 546
   0.335053 1  1e9             Rx   d 8 05 00 00 00 00 00 00 00   Length = 0 BitCount = 0 ID = 489
   0.350584 1  223             Rx   d 8 05 68 01 00 00 04 04 03   Length = 0 BitCount = 0 ID = 547
   0.350586 1  1e7             Rx   d 8 04 00 00 00 00 00 00 00   Length = 0 BitCount = 0 ID = 487
   0.350586 1  221             Rx   d 8 04 8C 0A 8C 0A 8C 0A 01   Length = 0 BitCount = 0 ID = 545
   0.350587 1  1e8             Rx   d 8 03 50 00 00 00 00 00 00   Length = 0 BitCount = 0 ID = 488
   0.350587 1  1e9             Rx   d 8 01 00 00 00 00 00 00 00   Length = 0 BitCount = 0 ID = 489
   0.350587 1  223             Rx   d 8 01 30 05 00 00 00 00 03   Length = 0 BitCount = 0 ID = 547
   0.350588 1  1e7             Rx   d 8 05 00 00 00 00 00 00 00   Length = 0 BitCount = 0 ID = 487
   0.350588 1  221             Rx   d 8 05 8C 0A 00 00 04 04 01   Length = 0 BitCount = 0 ID = 545
   0.350588 1  222             Rx   d 8 03 E2 00 E5 00 00 00 02   Length = 0 BitCount = 0 ID = 546
   0.365902 1  1e9             Rx   d 8 02 00 00 00 00 00 00 00   Length = 0 BitCount = 0 ID = 489
   0.365903 1  223             Rx   d 8 02 2C 01 36 01 04 01 03   Length = 0 BitCount = 0 ID = 547
   0.365904 1  1e7             Rx   d 8 01 00 00 00 00 00 00 00   Length = 0 BitCount = 0 ID = 487
   0.365904 1  221             Rx   d 8 01 30 05 00 00 00 00 01   Length = 0 BitCount = 0 ID = 545
   0.365904 1  1e8             Rx   d 8 04 50 00 00 00 00 00 00   Length = 0 BitCount = 0 ID = 488
   0.365905 1  1e9             Rx   d 8 03 00 00 00 00 00 00 00   Length = 0 BitCount = 0 ID = 489
   0.365905 1  223             Rx   d 8 03 FA 00 40 01 00 00 03   Length = 0 BitCount = 0 ID = 547
   0.365905 1  1e7             Rx   d 8 02 00 00 00 00 00 00 00   Length = 0 BitCount = 0 ID = 487
   0.365906 1  221             Rx   d 8 02 8C 0A 8C 0A CF 00 01   Length = 0 BitCount = 0 ID = 545
   0.381616 1  222             Rx   d 8 04 8C 0A 8C 0A 00 01 02   Length = 0 BitCount = 0 ID = 546
   0.381617 1  1e9             Rx   d 8 04 00 00 00 00 00 00 00   Length = 0 BitCount = 0 ID = 489
   0.381617 1  223             Rx   d 8 04 4A 01 54 01 5E 01 03   Length = 0 BitCount = 0 ID = 547
   0.381618 1  1e7             Rx   d 8 03 00 00 00 00 00 00 00   Length = 0 BitCount = 0 ID = 487
   0.381618 1  221             Rx   d 8 03 CE 00 8C 0A 00 00 01   Length = 0 BitCount = 0 ID = 545
   0.381618 1  1e8             Rx   d 8 05 50 00 00 00 00 00 00   Length = 0 BitCount = 0 ID = 488
   0.381619 1  1e9             Rx   d 8 05 00 00 00 00 00 00 00   Length = 0 BitCount = 0 ID = 489
   0.381619 1  223             Rx   d 8 05 68 01 00 00 04 04 03   Length = 0 BitCount = 0 ID = 547
   0.381619 1  1e7             Rx   d 8 04 00 00 00 00 00 00 00   Length = 0 BitCount = 0 ID = 487
   0.396803 1  221             Rx   d 8 04 8C 0A 8C 0A 8C 0A 01   Length = 0 BitCount = 0 ID = 545
   0.396804 1  222             Rx   d 8 05 D8 00 50 00 03 03 02   Length = 0 BitCount = 0 ID = 546
   0.396805 1  1e9             Rx   d 8 01 00 00 00 00 00 00 00   Length = 0 BitCount = 0 ID = 489
   0.396805 1  223             Rx   d 8 01 30 05 00 00 00 00 03   Length = 0 BitCount = 0 ID = 547
   0.396805 1  1e7             Rx   d 8 05 00 00 00 00 00 00 00   Length = 0 BitCount = 0 ID = 487
   0.396806 1  221             Rx   d 8 05 8C 0A 00 00 04 04 01   Length = 0 BitCount = 0 ID = 545
   0.396806 1  1e8             Rx   d 8 01 50 00 00 00 00 00 00   Length = 0 BitCount = 0 ID = 488
   0.396806 1  1e9             Rx   d 8 02 00 00 00 00 00 00 00   Length = 0 BitCount = 0 ID = 489
   0.396807 1  223             Rx   d 8 02 2C 01 36 01 04 01 03   Length = 0 BitCount = 0 ID = 547
   0.412104 1  1e7             Rx   d 8 01 00 00 00 00 00 00 00   Length = 0 BitCount = 0 ID = 487
   0.412105 1  221             Rx   d 8 01 30 05 00 00 00 00 01   Length = 0 BitCount = 0 ID = 545
   0.412105 1  222             Rx   d 8 01 00 05 00 00 00 00 02   Length = 0 BitCount = 0 ID = 546
   0.412105 1  1e9             Rx   d 8 03 00 00 00 00 00 00 00   Length = 0 BitCount = 0 ID = 489
   0.412106 1  223             Rx   d 8 03 FA 00 40 01 00 00 03   Length = 0 BitCount = 0 ID = 547
   0.412106 1  1e7             Rx   d 8 02 00 00 00 00 00 00 00   Length = 0 BitCount = 0 ID = 487
   0.412107 1  221             Rx   d 8 02 8C 0A 8C 0A CF 00 01   Length = 0 BitCount = 0 ID = 545
   0.412107 1  1e8             Rx   d 8 02 50 00 00 00 00 00 00   Length = 0 BitCount = 0 ID = 488
   0.412107 1  1e9             Rx   d 8 04 00 00 00 00 00 00 00   Length = 0 BitCount = 0 ID = 489
   0.412108 1  223             Rx   d 8 04 4A 01 54 01 5E 01 03   Length = 0 BitCount = 0 ID = 547
   0.427436 1  1e7             Rx   d 8 03 00 00 00 00 00 00 00   Length = 0 BitCount = 0 ID = 487
   0.427437 1  221             Rx   d 8 03 CE 00 8C 0A 00 00 01   Length = 0 BitCount = 0 ID = 545
   0.427438 1  222             Rx   d 8 02 8C 0A 8C 0A E8 00 02   Length = 0 BitCount = 0 ID = 546
   0.427438 1  1e9             Rx   d 8 05 00 00 00 00 00 00 00   Length = 0 BitCount = 0 ID = 489
   0.427439 1  223             Rx   d 8 05 68 01 00 00 04 04 03   Length = 0 BitCount = 0 ID = 547
   0.427439 1  1e7             Rx   d 8 04 00 00 00 00 00 00 00   Length = 0 BitCount = 0 ID = 487
   0.427439 1  221             Rx   d 8 04 8C 0A 8C 0A 8C 0A 01   Length = 0 BitCount = 0 ID = 545
   0.427440 1  1e8             Rx   d 8 03 50 00 00 00 00 00 00   Length = 0 BitCount = 0 ID = 488
   0.427440 1  1e9             Rx   d 8 01 00 00 00 00 00 00 00   Length = 0 BitCount = 0 ID = 489
   0.443053 1  223             Rx   d 8 01 30 05 00 00 00 00 03   Length = 0 BitCount = 0 ID = 547
   0.443055 1  1e7             Rx   d 8 05 00 00 00 00 00 00 00   Length = 0 BitCount = 0 ID = 487
   0.443055 1  221             Rx   d 8 05 8C 0A 00 00 04 04 01   Length = 0 BitCount = 0 ID = 545
   0.443055 1  222             Rx   d 8 03 E2 00 E5 00 00 00 02   Length = 0 BitCount = 0 ID = 546
   0.443056 1  1e9             Rx   d 8 02 00 00 00 00 00 00 00   Length = 0 BitCount = 0 ID = 489
   0.443056 1  223             Rx   d 8 02 2C 01 36 01 04 01 03   Length = 0 BitCount = 0 ID = 547
